 
 
 **********************************************
    NUMERICAL ELECTROMAGNETICS CODE (NEC-2D-P)
 **********************************************
 
 Enhanced version, copyright 1997-2003 Nittany Scientific
 
 Run date:  14:05:23 on 04-JUL-2011
 
 Parameter dimensions:
 
   NEC2D Version:  3.2NA
   Maximum # of segments:          2000
   Maximum # of segments in core:           640
   Maximum # of new connections to NGF segments:           180
   Maximum # of sources:            60
   Maximum # of degrees of symmetry:           360
   Maximum # of networks:            90
   Maximum # of segments at a junction:            90
   Maximum # of loads:           300
   Maximum # of frequencies or angles:           361
 
 **********************************************
 
1



                                 *********************************************

                                    NUMERICAL ELECTROMAGNETICS CODE (NEC-2D)

                                 *********************************************




                                     - - - - COMMENTS - - - -


  AC6P Dual 7-element 2M CP Yagi antenna                                                                                         
                                                                                                                                 
  *** DEFINE A 7-ELEMENT HORIZONTAL REF. YAGI




                                 - - - STRUCTURE SPECIFICATION - - -

                                     COORDINATES MUST BE INPUT IN
                                     METERS OR BE SCALED TO METERS
                                     BEFORE STRUCTURE INPUT IS ENDED


  WIRE                                                                               NO. OF    FIRST  LAST     TAG
  NO.        X1         Y1         Z1          X2         Y2         Z2      RADIUS   SEG.     SEG.   SEG.     NO.
     1  -41.50000  -49.00000    0.00000   -41.50000   49.00000    0.00000    0.35000      5        1     5       1
     2    0.00000  -55.00000    0.00000     0.00000   55.00000    0.00000    0.35000      6        6    11       2
     3   41.50000  -44.76800    0.00000    41.50000   44.76800    0.00000    0.35000      9       12    20       3
      THE STRUCTURE HAS BEEN MOVED, MOVE DATA CARD IS -
        1    4   0.00000   0.00000   0.00000  41.50000   0.00000   0.00000   3.30000
       GM command acting on tag #'s            3 through          300
  inclusive.
  *** CREATE AN IDENTICAL VERTICAL BEAM 0.25 WAVELENGTH AWAY
      THE STRUCTURE HAS BEEN MOVED, MOVE DATA CARD IS -
       50    1  90.00000   0.00000   0.00000  51.37900   0.00000   0.00000   1.30000
       GM command acting on tag #'s            1 through          300
  inclusive.
      STRUCTURE SCALED BY FACTOR   0.01000

   TOTAL SEGMENTS USED=  112     NO. SEG. IN A SYMMETRIC CELL=  112     SYMMETRY FLAG=  0


         - MULTIPLE WIRE JUNCTIONS -
 JUNCTION    SEGMENTS  (- FOR END 1, + FOR END 2)
  NONE




                                 - - - - SEGMENTATION DATA - - - -

                                        COORDINATES IN METERS

                         I+ AND I- INDICATE THE SEGMENTS BEFORE AND AFTER I


  SEG.     COORDINATES OF SEG. CENTER       SEG.     ORIENTATION ANGLES    WIRE    CONNECTION DATA   TAG
  NO.        X          Y          Z        LENGTH     ALPHA     BETA      RADIUS    I-   I    I+    NO.
     1   -0.41500   -0.39200    0.00000    0.19600    0.00000  90.00000   0.00350     0    1    2      1
     2   -0.41500   -0.19600    0.00000    0.19600    0.00000  90.00000   0.00350     1    2    3      1
     3   -0.41500    0.00000    0.00000    0.19600    0.00000  90.00000   0.00350     2    3    4      1
     4   -0.41500    0.19600    0.00000    0.19600    0.00000  90.00000   0.00350     3    4    5      1
     5   -0.41500    0.39200    0.00000    0.19600    0.00000  90.00000   0.00350     4    5    0      1
     6    0.00000   -0.45833    0.00000    0.18333    0.00000  90.00000   0.00350     0    6    7      2
     7    0.00000   -0.27500    0.00000    0.18333    0.00000  90.00000   0.00350     6    7    8      2
     8    0.00000   -0.09167    0.00000    0.18333    0.00000  90.00000   0.00350     7    8    9      2
     9    0.00000    0.09167    0.00000    0.18333    0.00000  90.00000   0.00350     8    9   10      2
    10    0.00000    0.27500    0.00000    0.18333    0.00000  90.00000   0.00350     9   10   11      2
    11    0.00000    0.45833    0.00000    0.18333    0.00000  90.00000   0.00350    10   11    0      2
    12    0.41500   -0.39794    0.00000    0.09948    0.00000  90.00000   0.00350     0   12   13      3
    13    0.41500   -0.29845    0.00000    0.09948    0.00000  90.00000   0.00350    12   13   14      3
    14    0.41500   -0.19897    0.00000    0.09948    0.00000  90.00000   0.00350    13   14   15      3
    15    0.41500   -0.09948    0.00000    0.09948    0.00000  90.00000   0.00350    14   15   16      3
    16    0.41500    0.00000    0.00000    0.09948    0.00000  90.00000   0.00350    15   16   17      3
    17    0.41500    0.09948    0.00000    0.09948    0.00000  90.00000   0.00350    16   17   18      3
    18    0.41500    0.19897    0.00000    0.09948    0.00000  90.00000   0.00350    17   18   19      3
    19    0.41500    0.29845    0.00000    0.09948    0.00000  90.00000   0.00350    18   19   20      3
    20    0.41500    0.39794    0.00000    0.09948    0.00000  90.00000   0.00350    19   20    0      3
    21    0.83000   -0.39794    0.00000    0.09948    0.00000  90.00000   0.00350     0   21   22      4
    22    0.83000   -0.29845    0.00000    0.09948    0.00000  90.00000   0.00350    21   22   23      4
    23    0.83000   -0.19897    0.00000    0.09948    0.00000  90.00000   0.00350    22   23   24      4
    24    0.83000   -0.09948    0.00000    0.09948    0.00000  90.00000   0.00350    23   24   25      4
    25    0.83000    0.00000    0.00000    0.09948    0.00000  90.00000   0.00350    24   25   26      4
    26    0.83000    0.09948    0.00000    0.09948    0.00000  90.00000   0.00350    25   26   27      4
    27    0.83000    0.19897    0.00000    0.09948    0.00000  90.00000   0.00350    26   27   28      4
    28    0.83000    0.29845    0.00000    0.09948    0.00000  90.00000   0.00350    27   28   29      4
    29    0.83000    0.39794    0.00000    0.09948    0.00000  90.00000   0.00350    28   29    0      4
    30    1.24500   -0.39794    0.00000    0.09948    0.00000  90.00000   0.00350     0   30   31      5
    31    1.24500   -0.29845    0.00000    0.09948    0.00000  90.00000   0.00350    30   31   32      5
    32    1.24500   -0.19897    0.00000    0.09948    0.00000  90.00000   0.00350    31   32   33      5
    33    1.24500   -0.09948    0.00000    0.09948    0.00000  90.00000   0.00350    32   33   34      5
    34    1.24500    0.00000    0.00000    0.09948    0.00000  90.00000   0.00350    33   34   35      5
    35    1.24500    0.09948    0.00000    0.09948    0.00000  90.00000   0.00350    34   35   36      5
    36    1.24500    0.19897    0.00000    0.09948    0.00000  90.00000   0.00350    35   36   37      5
    37    1.24500    0.29845    0.00000    0.09948    0.00000  90.00000   0.00350    36   37   38      5
    38    1.24500    0.39794    0.00000    0.09948    0.00000  90.00000   0.00350    37   38    0      5
    39    1.66000   -0.39794    0.00000    0.09948    0.00000  90.00000   0.00350     0   39   40      6
    40    1.66000   -0.29845    0.00000    0.09948    0.00000  90.00000   0.00350    39   40   41      6
    41    1.66000   -0.19897    0.00000    0.09948    0.00000  90.00000   0.00350    40   41   42      6
    42    1.66000   -0.09948    0.00000    0.09948    0.00000  90.00000   0.00350    41   42   43      6
    43    1.66000    0.00000    0.00000    0.09948    0.00000  90.00000   0.00350    42   43   44      6
    44    1.66000    0.09948    0.00000    0.09948    0.00000  90.00000   0.00350    43   44   45      6
    45    1.66000    0.19897    0.00000    0.09948    0.00000  90.00000   0.00350    44   45   46      6
    46    1.66000    0.29845    0.00000    0.09948    0.00000  90.00000   0.00350    45   46   47      6
    47    1.66000    0.39794    0.00000    0.09948    0.00000  90.00000   0.00350    46   47    0      6
    48    2.07500   -0.39794    0.00000    0.09948    0.00000  90.00000   0.00350     0   48   49      7
    49    2.07500   -0.29845    0.00000    0.09948    0.00000  90.00000   0.00350    48   49   50      7
    50    2.07500   -0.19897    0.00000    0.09948    0.00000  90.00000   0.00350    49   50   51      7
    51    2.07500   -0.09948    0.00000    0.09948    0.00000  90.00000   0.00350    50   51   52      7
    52    2.07500    0.00000    0.00000    0.09948    0.00000  90.00000   0.00350    51   52   53      7
    53    2.07500    0.09948    0.00000    0.09948    0.00000  90.00000   0.00350    52   53   54      7
    54    2.07500    0.19897    0.00000    0.09948    0.00000  90.00000   0.00350    53   54   55      7
    55    2.07500    0.29845    0.00000    0.09948    0.00000  90.00000   0.00350    54   55   56      7
    56    2.07500    0.39794    0.00000    0.09948    0.00000  90.00000   0.00350    55   56    0      7
    57    0.09879    0.00000   -0.39200    0.19600   90.00000 -90.00000   0.00350     0   57   58     51
    58    0.09879    0.00000   -0.19600    0.19600   90.00000 -90.00000   0.00350    57   58   59     51
    59    0.09879    0.00000    0.00000    0.19600   90.00000 -90.00000   0.00350    58   59   60     51
    60    0.09879    0.00000    0.19600    0.19600   90.00000 -90.00000   0.00350    59   60   61     51
    61    0.09879    0.00000    0.39200    0.19600   90.00000 -90.00000   0.00350    60   61    0     51
    62    0.51379    0.00000   -0.45833    0.18333   90.00000 -90.00000   0.00350     0   62   63     52
    63    0.51379    0.00000   -0.27500    0.18333   90.00000 -90.00000   0.00350    62   63   64     52
    64    0.51379    0.00000   -0.09167    0.18333   90.00000 -90.00000   0.00350    63   64   65     52
    65    0.51379    0.00000    0.09167    0.18333   90.00000 -90.00000   0.00350    64   65   66     52
    66    0.51379    0.00000    0.27500    0.18333   90.00000 -90.00000   0.00350    65   66   67     52
    67    0.51379    0.00000    0.45833    0.18333   90.00000 -90.00000   0.00350    66   67    0     52
    68    0.92879    0.00000   -0.39794    0.09948   90.00000 -90.00000   0.00350     0   68   69     53
    69    0.92879    0.00000   -0.29845    0.09948   90.00000 -90.00000   0.00350    68   69   70     53
    70    0.92879    0.00000   -0.19897    0.09948   90.00000 -90.00000   0.00350    69   70   71     53
    71    0.92879    0.00000   -0.09948    0.09948   90.00000 -90.00000   0.00350    70   71   72     53
    72    0.92879    0.00000    0.00000    0.09948   90.00000 -90.00000   0.00350    71   72   73     53
    73    0.92879    0.00000    0.09948    0.09948   90.00000 -90.00000   0.00350    72   73   74     53
    74    0.92879    0.00000    0.19897    0.09948   90.00000 -90.00000   0.00350    73   74   75     53
    75    0.92879    0.00000    0.29845    0.09948   90.00000 -90.00000   0.00350    74   75   76     53
    76    0.92879    0.00000    0.39794    0.09948   90.00000 -90.00000   0.00350    75   76    0     53
    77    1.34379    0.00000   -0.39794    0.09948   90.00000 -90.00000   0.00350     0   77   78     54
    78    1.34379    0.00000   -0.29845    0.09948   90.00000 -90.00000   0.00350    77   78   79     54
    79    1.34379    0.00000   -0.19897    0.09948   90.00000 -90.00000   0.00350    78   79   80     54
    80    1.34379    0.00000   -0.09948    0.09948   90.00000 -90.00000   0.00350    79   80   81     54
    81    1.34379    0.00000    0.00000    0.09948   90.00000 -90.00000   0.00350    80   81   82     54
    82    1.34379    0.00000    0.09948    0.09948   90.00000 -90.00000   0.00350    81   82   83     54
    83    1.34379    0.00000    0.19897    0.09948   90.00000 -90.00000   0.00350    82   83   84     54
    84    1.34379    0.00000    0.29845    0.09948   90.00000 -90.00000   0.00350    83   84   85     54
    85    1.34379    0.00000    0.39794    0.09948   90.00000 -90.00000   0.00350    84   85    0     54
    86    1.75879    0.00000   -0.39794    0.09948   90.00000 -90.00000   0.00350     0   86   87     55
    87    1.75879    0.00000   -0.29845    0.09948   90.00000 -90.00000   0.00350    86   87   88     55
    88    1.75879    0.00000   -0.19897    0.09948   90.00000 -90.00000   0.00350    87   88   89     55
    89    1.75879    0.00000   -0.09948    0.09948   90.00000 -90.00000   0.00350    88   89   90     55
    90    1.75879    0.00000    0.00000    0.09948   90.00000 -90.00000   0.00350    89   90   91     55
    91    1.75879    0.00000    0.09948    0.09948   90.00000 -90.00000   0.00350    90   91   92     55
    92    1.75879    0.00000    0.19897    0.09948   90.00000 -90.00000   0.00350    91   92   93     55
    93    1.75879    0.00000    0.29845    0.09948   90.00000 -90.00000   0.00350    92   93   94     55
    94    1.75879    0.00000    0.39794    0.09948   90.00000 -90.00000   0.00350    93   94    0     55
    95    2.17379    0.00000   -0.39794    0.09948   90.00000 -90.00000   0.00350     0   95   96     56
    96    2.17379    0.00000   -0.29845    0.09948   90.00000 -90.00000   0.00350    95   96   97     56
    97    2.17379    0.00000   -0.19897    0.09948   90.00000 -90.00000   0.00350    96   97   98     56
    98    2.17379    0.00000   -0.09948    0.09948   90.00000 -90.00000   0.00350    97   98   99     56
    99    2.17379    0.00000    0.00000    0.09948   90.00000 -90.00000   0.00350    98   99  100     56
   100    2.17379    0.00000    0.09948    0.09948   90.00000 -90.00000   0.00350    99  100  101     56
   101    2.17379    0.00000    0.19897    0.09948   90.00000 -90.00000   0.00350   100  101  102     56
   102    2.17379    0.00000    0.29845    0.09948   90.00000 -90.00000   0.00350   101  102  103     56
   103    2.17379    0.00000    0.39794    0.09948   90.00000 -90.00000   0.00350   102  103    0     56
   104    2.58879    0.00000   -0.39794    0.09948   90.00000 -90.00000   0.00350     0  104  105     57
   105    2.58879    0.00000   -0.29845    0.09948   90.00000 -90.00000   0.00350   104  105  106     57
   106    2.58879    0.00000   -0.19897    0.09948   90.00000 -90.00000   0.00350   105  106  107     57
   107    2.58879    0.00000   -0.09948    0.09948   90.00000 -90.00000   0.00350   106  107  108     57
   108    2.58879    0.00000    0.00000    0.09948   90.00000 -90.00000   0.00350   107  108  109     57
   109    2.58879    0.00000    0.09948    0.09948   90.00000 -90.00000   0.00350   108  109  110     57
   110    2.58879    0.00000    0.19897    0.09948   90.00000 -90.00000   0.00350   109  110  111     57
   111    2.58879    0.00000    0.29845    0.09948   90.00000 -90.00000   0.00350   110  111  112     57
   112    2.58879    0.00000    0.39794    0.09948   90.00000 -90.00000   0.00350   111  112    0     57






   LD 1 2 5 5 1E8 1E8 7E-12
   LD 0 5 5 5 0 0 1.86E-12
 ***** DATA CARD NO.   1 EX     0     2     5     0  1.00000E+00  0.00000E+00  0.00000E+00  0.00000E+00  0.00000E+00  0.00000E+00
 ***** DATA CARD NO.   2 EX     0    52     5     0  1.00000E+00  0.00000E+00  0.00000E+00  0.00000E+00  0.00000E+00  0.00000E+00
  TL 2 5 52 5 50.00 1.09      ! RG-58A POLYETHYLENE
  TL 2 5 52 5 50 2.0548      ! USER DEFINED VF =  1
 ***** DATA CARD NO.   3 FR     0     4     0     0  1.44000E+02  1.00000E+00  0.00000E+00  0.00000E+00  0.00000E+00  0.00000E+00
 ***** DATA CARD NO.   4 RP     0     1    19  1000  9.00000E+01  0.00000E+00  1.00000E+00  1.00000E+01  0.00000E+00  0.00000E+00




                                 - - - - - - FREQUENCY - - - - - -

                                    FREQUENCY= 1.4400E+02 MHZ
                                    WAVELENGTH= 2.0819E+00 METERS




                    APPROXIMATE INTEGRATION EMPLOYED FOR SEGMENTS MORE THAN   1.000 WAVELENGTHS APART



                               - - - STRUCTURE IMPEDANCE LOADING - - -

                                   THIS STRUCTURE IS NOT LOADED



                                  - - - ANTENNA ENVIRONMENT - - -

                                            FREE SPACE



                                - - - MATRIX TIMING - - -

                        FILL=    0.020 SEC.,  FACTOR=    0.010 SEC.



                                          - - - ANTENNA INPUT PARAMETERS - - -

   TAG   SEG.    VOLTAGE (VOLTS)         CURRENT (AMPS)         IMPEDANCE (OHMS)        ADMITTANCE (MHOS)      POWER
   NO.   NO.    REAL        IMAG.       REAL        IMAG.       REAL        IMAG.       REAL        IMAG.     (WATTS)
     2    10 1.00000E+00 0.00000E+00 1.89059E-03-3.50666E-03 1.19122E+02 2.20948E+02 1.89059E-03-3.50666E-03 9.45295E-04
    52    66 1.00000E+00 0.00000E+00 1.89078E-03-3.50489E-03 1.19222E+02 2.20999E+02 1.89078E-03-3.50489E-03 9.45388E-04



                             - - - CURRENTS AND LOCATION - - -

                                 DISTANCES IN WAVELENGTHS


  SEG.  TAG    COORD. OF SEG. CENTER     SEG.            - - - CURRENT (AMPS) - - -
  NO.   NO.     X        Y        Z      LENGTH     REAL        IMAG.       MAG.        PHASE
     1    1  -0.1993  -0.1883   0.0000  0.09414  -3.5315E-05  1.3491E-03  1.3495E-03   91.500
     2    1  -0.1993  -0.0941   0.0000  0.09414  -8.8630E-05  3.1902E-03  3.1914E-03   91.591
     3    1  -0.1993   0.0000   0.0000  0.09414  -1.0638E-04  3.8351E-03  3.8365E-03   91.589
     4    1  -0.1993   0.0941   0.0000  0.09414  -8.1929E-05  3.1596E-03  3.1607E-03   91.485
     5    1  -0.1993   0.1883   0.0000  0.09414  -2.9453E-05  1.3276E-03  1.3279E-03   91.271
     6    2   0.0000  -0.2201   0.0000  0.08806   7.4003E-04 -2.3641E-03  2.4772E-03  -72.618
     7    2   0.0000  -0.1321   0.0000  0.08806   1.8792E-03 -5.6258E-03  5.9313E-03  -71.529
     8    2   0.0000  -0.0440   0.0000  0.08806   2.5266E-03 -6.9703E-03  7.4141E-03  -70.075
     9    2   0.0000   0.0440   0.0000  0.08806   2.5315E-03 -6.1090E-03  6.6127E-03  -67.492
    10    2   0.0000   0.1321   0.0000  0.08806   1.8906E-03 -3.5067E-03  3.9838E-03  -61.669
    11    2   0.0000   0.2201   0.0000  0.08806   7.4801E-04 -1.4198E-03  1.6048E-03  -62.218
    12    3   0.1993  -0.1911   0.0000  0.04778  -9.4067E-04  2.7045E-04  9.7878E-04  163.959
    13    3   0.1993  -0.1434   0.0000  0.04778  -2.3004E-03  6.5443E-04  2.3917E-03  164.120
    14    3   0.1993  -0.0956   0.0000  0.04778  -3.2890E-03  9.1493E-04  3.4139E-03  164.455
    15    3   0.1993  -0.0478   0.0000  0.04778  -3.9080E-03  1.0379E-03  4.0435E-03  165.127
    16    3   0.1993   0.0000   0.0000  0.04778  -4.1191E-03  1.0017E-03  4.2391E-03  166.331
    17    3   0.1993   0.0478   0.0000  0.04778  -3.9076E-03  8.6183E-04  4.0015E-03  167.562
    18    3   0.1993   0.0956   0.0000  0.04778  -3.2880E-03  6.8126E-04  3.3578E-03  168.294
    19    3   0.1993   0.1434   0.0000  0.04778  -2.2990E-03  4.5900E-04  2.3444E-03  168.709
    20    3   0.1993   0.1911   0.0000  0.04778  -9.3976E-04  1.8318E-04  9.5745E-04  168.970
    21    4   0.3987  -0.1911   0.0000  0.04778  -4.2511E-05  6.5894E-04  6.6031E-04   93.691
    22    4   0.3987  -0.1434   0.0000  0.04778  -1.0453E-04  1.6040E-03  1.6074E-03   93.729
    23    4   0.3987  -0.0956   0.0000  0.04778  -1.5017E-04  2.2815E-03  2.2864E-03   93.766
    24    4   0.3987  -0.0478   0.0000  0.04778  -1.7931E-04  2.6950E-03  2.7010E-03   93.807
