 
 
 **********************************************
    NUMERICAL ELECTROMAGNETICS CODE (NEC-2D-P)
 **********************************************
 
 Enhanced version, copyright 1997-2003 Nittany Scientific
 
 Run date:  16:11:19 on 02-JAN-2012
 
 Parameter dimensions:
 
   NEC2D Version:  3.2NA
   Maximum # of segments:          2000
   Maximum # of segments in core:           640
   Maximum # of new connections to NGF segments:           180
   Maximum # of sources:            60
   Maximum # of degrees of symmetry:           360
   Maximum # of networks:            90
   Maximum # of segments at a junction:            90
   Maximum # of loads:           300
   Maximum # of frequencies or angles:           361
 
 **********************************************
 
1



                                 *********************************************

                                    NUMERICAL ELECTROMAGNETICS CODE (NEC-2D)

                                 *********************************************




                                     - - - - COMMENTS - - - -


  AC6P Dual 7-element 2M CP Satellite Yagi antenna                                                                               
                                                                                                                                 
  *** DEFINE A SINGLE 7-ELEMENT HORIZONTAL REF. YAGI




                                 - - - STRUCTURE SPECIFICATION - - -

                                     COORDINATES MUST BE INPUT IN
                                     METERS OR BE SCALED TO METERS
                                     BEFORE STRUCTURE INPUT IS ENDED


  WIRE                                                                               NO. OF    FIRST  LAST     TAG
  NO.        X1         Y1         Z1          X2         Y2         Z2      RADIUS   SEG.     SEG.   SEG.     NO.
     1  -41.50000  -50.85000    0.00000   -41.50000   50.85000    0.00000    0.35000      9        1     9       1
     2    0.00000  -48.25000    0.00000     0.00000   48.25000    0.00000    0.35000      9       10    18       2
     3   41.50000  -45.07500    0.00000    41.50000   45.07500    0.00000    0.35000      9       19    27       3
     4   83.00000  -44.40000    0.00000    83.00000   44.40000    0.00000    0.35000      9       28    36       4
      THE STRUCTURE HAS BEEN MOVED, MOVE DATA CARD IS -
        1    3   0.00000   0.00000   0.00000  41.50000   0.00000   0.00000   4.30000
       GM command acting on tag #'s            4 through          300
  inclusive.
  *** CREATE AN IDENTICAL VERTICAL BEAM 0.25 WAVELENGTH AWAY
      THE STRUCTURE HAS BEEN MOVED, MOVE DATA CARD IS -
       50    1  90.00000   0.00000   0.00000  51.50000   0.00000   0.00000   1.30000
       GM command acting on tag #'s            1 through          300
  inclusive.
      STRUCTURE SCALED BY FACTOR   0.01000

   TOTAL SEGMENTS USED=  126     NO. SEG. IN A SYMMETRIC CELL=  126     SYMMETRY FLAG=  0


         - MULTIPLE WIRE JUNCTIONS -
 JUNCTION    SEGMENTS  (- FOR END 1, + FOR END 2)
  NONE




                                 - - - - SEGMENTATION DATA - - - -

                                        COORDINATES IN METERS

                         I+ AND I- INDICATE THE SEGMENTS BEFORE AND AFTER I


  SEG.     COORDINATES OF SEG. CENTER       SEG.     ORIENTATION ANGLES    WIRE    CONNECTION DATA   TAG
  NO.        X          Y          Z        LENGTH     ALPHA     BETA      RADIUS    I-   I    I+    NO.
     1   -0.41500   -0.45200    0.00000    0.11300    0.00000  90.00000   0.00350     0    1    2      1
     2   -0.41500   -0.33900    0.00000    0.11300    0.00000  90.00000   0.00350     1    2    3      1
     3   -0.41500   -0.22600    0.00000    0.11300    0.00000  90.00000   0.00350     2    3    4      1
     4   -0.41500   -0.11300    0.00000    0.11300    0.00000  90.00000   0.00350     3    4    5      1
     5   -0.41500    0.00000    0.00000    0.11300    0.00000  90.00000   0.00350     4    5    6      1
     6   -0.41500    0.11300    0.00000    0.11300    0.00000  90.00000   0.00350     5    6    7      1
     7   -0.41500    0.22600    0.00000    0.11300    0.00000  90.00000   0.00350     6    7    8      1
     8   -0.41500    0.33900    0.00000    0.11300    0.00000  90.00000   0.00350     7    8    9      1
     9   -0.41500    0.45200    0.00000    0.11300    0.00000  90.00000   0.00350     8    9    0      1
    10    0.00000   -0.42889    0.00000    0.10722    0.00000  90.00000   0.00350     0   10   11      2
    11    0.00000   -0.32167    0.00000    0.10722    0.00000  90.00000   0.00350    10   11   12      2
    12    0.00000   -0.21444    0.00000    0.10722    0.00000  90.00000   0.00350    11   12   13      2
    13    0.00000   -0.10722    0.00000    0.10722    0.00000  90.00000   0.00350    12   13   14      2
    14    0.00000    0.00000    0.00000    0.10722    0.00000  90.00000   0.00350    13   14   15      2
    15    0.00000    0.10722    0.00000    0.10722    0.00000  90.00000   0.00350    14   15   16      2
    16    0.00000    0.21444    0.00000    0.10722    0.00000  90.00000   0.00350    15   16   17      2
    17    0.00000    0.32167    0.00000    0.10722    0.00000  90.00000   0.00350    16   17   18      2
    18    0.00000    0.42889    0.00000    0.10722    0.00000  90.00000   0.00350    17   18    0      2
    19    0.41500   -0.40067    0.00000    0.10017    0.00000  90.00000   0.00350     0   19   20      3
    20    0.41500   -0.30050    0.00000    0.10017    0.00000  90.00000   0.00350    19   20   21      3
    21    0.41500   -0.20033    0.00000    0.10017    0.00000  90.00000   0.00350    20   21   22      3
    22    0.41500   -0.10017    0.00000    0.10017    0.00000  90.00000   0.00350    21   22   23      3
    23    0.41500    0.00000    0.00000    0.10017    0.00000  90.00000   0.00350    22   23   24      3
    24    0.41500    0.10017    0.00000    0.10017    0.00000  90.00000   0.00350    23   24   25      3
    25    0.41500    0.20033    0.00000    0.10017    0.00000  90.00000   0.00350    24   25   26      3
    26    0.41500    0.30050    0.00000    0.10017    0.00000  90.00000   0.00350    25   26   27      3
    27    0.41500    0.40067    0.00000    0.10017    0.00000  90.00000   0.00350    26   27    0      3
    28    0.83000   -0.39467    0.00000    0.09867    0.00000  90.00000   0.00350     0   28   29      4
    29    0.83000   -0.29600    0.00000    0.09867    0.00000  90.00000   0.00350    28   29   30      4
    30    0.83000   -0.19733    0.00000    0.09867    0.00000  90.00000   0.00350    29   30   31      4
    31    0.83000   -0.09867    0.00000    0.09867    0.00000  90.00000   0.00350    30   31   32      4
    32    0.83000    0.00000    0.00000    0.09867    0.00000  90.00000   0.00350    31   32   33      4
    33    0.83000    0.09867    0.00000    0.09867    0.00000  90.00000   0.00350    32   33   34      4
    34    0.83000    0.19733    0.00000    0.09867    0.00000  90.00000   0.00350    33   34   35      4
    35    0.83000    0.29600    0.00000    0.09867    0.00000  90.00000   0.00350    34   35   36      4
    36    0.83000    0.39467    0.00000    0.09867    0.00000  90.00000   0.00350    35   36    0      4
    37    1.24500   -0.39467    0.00000    0.09867    0.00000  90.00000   0.00350     0   37   38      5
    38    1.24500   -0.29600    0.00000    0.09867    0.00000  90.00000   0.00350    37   38   39      5
    39    1.24500   -0.19733    0.00000    0.09867    0.00000  90.00000   0.00350    38   39   40      5
    40    1.24500   -0.09867    0.00000    0.09867    0.00000  90.00000   0.00350    39   40   41      5
    41    1.24500    0.00000    0.00000    0.09867    0.00000  90.00000   0.00350    40   41   42      5
    42    1.24500    0.09867    0.00000    0.09867    0.00000  90.00000   0.00350    41   42   43      5
    43    1.24500    0.19733    0.00000    0.09867    0.00000  90.00000   0.00350    42   43   44      5
    44    1.24500    0.29600    0.00000    0.09867    0.00000  90.00000   0.00350    43   44   45      5
    45    1.24500    0.39467    0.00000    0.09867    0.00000  90.00000   0.00350    44   45    0      5
    46    1.66000   -0.39467    0.00000    0.09867    0.00000  90.00000   0.00350     0   46   47      6
    47    1.66000   -0.29600    0.00000    0.09867    0.00000  90.00000   0.00350    46   47   48      6
    48    1.66000   -0.19733    0.00000    0.09867    0.00000  90.00000   0.00350    47   48   49      6
    49    1.66000   -0.09867    0.00000    0.09867    0.00000  90.00000   0.00350    48   49   50      6
    50    1.66000    0.00000    0.00000    0.09867    0.00000  90.00000   0.00350    49   50   51      6
    51    1.66000    0.09867    0.00000    0.09867    0.00000  90.00000   0.00350    50   51   52      6
    52    1.66000    0.19733    0.00000    0.09867    0.00000  90.00000   0.00350    51   52   53      6
    53    1.66000    0.29600    0.00000    0.09867    0.00000  90.00000   0.00350    52   53   54      6
    54    1.66000    0.39467    0.00000    0.09867    0.00000  90.00000   0.00350    53   54    0      6
    55    2.07500   -0.39467    0.00000    0.09867    0.00000  90.00000   0.00350     0   55   56      7
    56    2.07500   -0.29600    0.00000    0.09867    0.00000  90.00000   0.00350    55   56   57      7
    57    2.07500   -0.19733    0.00000    0.09867    0.00000  90.00000   0.00350    56   57   58      7
    58    2.07500   -0.09867    0.00000    0.09867    0.00000  90.00000   0.00350    57   58   59      7
    59    2.07500    0.00000    0.00000    0.09867    0.00000  90.00000   0.00350    58   59   60      7
    60    2.07500    0.09867    0.00000    0.09867    0.00000  90.00000   0.00350    59   60   61      7
    61    2.07500    0.19733    0.00000    0.09867    0.00000  90.00000   0.00350    60   61   62      7
    62    2.07500    0.29600    0.00000    0.09867    0.00000  90.00000   0.00350    61   62   63      7
    63    2.07500    0.39467    0.00000    0.09867    0.00000  90.00000   0.00350    62   63    0      7
    64    0.10000    0.00000   -0.45200    0.11300   90.00000 -90.00000   0.00350     0   64   65     51
    65    0.10000    0.00000   -0.33900    0.11300   90.00000 -90.00000   0.00350    64   65   66     51
    66    0.10000    0.00000   -0.22600    0.11300   90.00000 -90.00000   0.00350    65   66   67     51
    67    0.10000    0.00000   -0.11300    0.11300   90.00000 -90.00000   0.00350    66   67   68     51
    68    0.10000    0.00000    0.00000    0.11300   90.00000 -90.00000   0.00350    67   68   69     51
    69    0.10000    0.00000    0.11300    0.11300   90.00000 -90.00000   0.00350    68   69   70     51
    70    0.10000    0.00000    0.22600    0.11300   90.00000 -90.00000   0.00350    69   70   71     51
    71    0.10000    0.00000    0.33900    0.11300   90.00000 -90.00000   0.00350    70   71   72     51
    72    0.10000    0.00000    0.45200    0.11300   90.00000 -90.00000   0.00350    71   72    0     51
    73    0.51500    0.00000   -0.42889    0.10722   90.00000 -90.00000   0.00350     0   73   74     52
    74    0.51500    0.00000   -0.32167    0.10722   90.00000 -90.00000   0.00350    73   74   75     52
    75    0.51500    0.00000   -0.21444    0.10722   90.00000 -90.00000   0.00350    74   75   76     52
    76    0.51500    0.00000   -0.10722    0.10722   90.00000 -90.00000   0.00350    75   76   77     52
    77    0.51500    0.00000    0.00000    0.10722   90.00000 -90.00000   0.00350    76   77   78     52
    78    0.51500    0.00000    0.10722    0.10722   90.00000 -90.00000   0.00350    77   78   79     52
    79    0.51500    0.00000    0.21444    0.10722   90.00000 -90.00000   0.00350    78   79   80     52
    80    0.51500    0.00000    0.32167    0.10722   90.00000 -90.00000   0.00350    79   80   81     52
    81    0.51500    0.00000    0.42889    0.10722   90.00000 -90.00000   0.00350    80   81    0     52
    82    0.93000    0.00000   -0.40067    0.10017   90.00000 -90.00000   0.00350     0   82   83     53
    83    0.93000    0.00000   -0.30050    0.10017   90.00000 -90.00000   0.00350    82   83   84     53
    84    0.93000    0.00000   -0.20033    0.10017   90.00000 -90.00000   0.00350    83   84   85     53
    85    0.93000    0.00000   -0.10017    0.10017   90.00000 -90.00000   0.00350    84   85   86     53
    86    0.93000    0.00000    0.00000    0.10017   90.00000 -90.00000   0.00350    85   86   87     53
    87    0.93000    0.00000    0.10017    0.10017   90.00000 -90.00000   0.00350    86   87   88     53
    88    0.93000    0.00000    0.20033    0.10017   90.00000 -90.00000   0.00350    87   88   89     53
    89    0.93000    0.00000    0.30050    0.10017   90.00000 -90.00000   0.00350    88   89   90     53
    90    0.93000    0.00000    0.40067    0.10017   90.00000 -90.00000   0.00350    89   90    0     53
    91    1.34500    0.00000   -0.39467    0.09867   90.00000 -90.00000   0.00350     0   91   92     54
    92    1.34500    0.00000   -0.29600    0.09867   90.00000 -90.00000   0.00350    91   92   93     54
    93    1.34500    0.00000   -0.19733    0.09867   90.00000 -90.00000   0.00350    92   93   94     54
    94    1.34500    0.00000   -0.09867    0.09867   90.00000 -90.00000   0.00350    93   94   95     54
    95    1.34500    0.00000    0.00000    0.09867   90.00000 -90.00000   0.00350    94   95   96     54
    96    1.34500    0.00000    0.09867    0.09867   90.00000 -90.00000   0.00350    95   96   97     54
    97    1.34500    0.00000    0.19733    0.09867   90.00000 -90.00000   0.00350    96   97   98     54
    98    1.34500    0.00000    0.29600    0.09867   90.00000 -90.00000   0.00350    97   98   99     54
    99    1.34500    0.00000    0.39467    0.09867   90.00000 -90.00000   0.00350    98   99    0     54
   100    1.76000    0.00000   -0.39467    0.09867   90.00000 -90.00000   0.00350     0  100  101     55
   101    1.76000    0.00000   -0.29600    0.09867   90.00000 -90.00000   0.00350   100  101  102     55
   102    1.76000    0.00000   -0.19733    0.09867   90.00000 -90.00000   0.00350   101  102  103     55
   103    1.76000    0.00000   -0.09867    0.09867   90.00000 -90.00000   0.00350   102  103  104     55
   104    1.76000    0.00000    0.00000    0.09867   90.00000 -90.00000   0.00350   103  104  105     55
   105    1.76000    0.00000    0.09867    0.09867   90.00000 -90.00000   0.00350   104  105  106     55
   106    1.76000    0.00000    0.19733    0.09867   90.00000 -90.00000   0.00350   105  106  107     55
   107    1.76000    0.00000    0.29600    0.09867   90.00000 -90.00000   0.00350   106  107  108     55
   108    1.76000    0.00000    0.39467    0.09867   90.00000 -90.00000   0.00350   107  108    0     55
   109    2.17500    0.00000   -0.39467    0.09867   90.00000 -90.00000   0.00350     0  109  110     56
   110    2.17500    0.00000   -0.29600    0.09867   90.00000 -90.00000   0.00350   109  110  111     56
   111    2.17500    0.00000   -0.19733    0.09867   90.00000 -90.00000   0.00350   110  111  112     56
   112    2.17500    0.00000   -0.09867    0.09867   90.00000 -90.00000   0.00350   111  112  113     56
   113    2.17500    0.00000    0.00000    0.09867   90.00000 -90.00000   0.00350   112  113  114     56
   114    2.17500    0.00000    0.09867    0.09867   90.00000 -90.00000   0.00350   113  114  115     56
   115    2.17500    0.00000    0.19733    0.09867   90.00000 -90.00000   0.00350   114  115  116     56
   116    2.17500    0.00000    0.29600    0.09867   90.00000 -90.00000   0.00350   115  116  117     56
   117    2.17500    0.00000    0.39467    0.09867   90.00000 -90.00000   0.00350   116  117    0     56
   118    2.59000    0.00000   -0.39467    0.09867   90.00000 -90.00000   0.00350     0  118  119     57
   119    2.59000    0.00000   -0.29600    0.09867   90.00000 -90.00000   0.00350   118  119  120     57
   120    2.59000    0.00000   -0.19733    0.09867   90.00000 -90.00000   0.00350   119  120  121     57
   121    2.59000    0.00000   -0.09867    0.09867   90.00000 -90.00000   0.00350   120  121  122     57
   122    2.59000    0.00000    0.00000    0.09867   90.00000 -90.00000   0.00350   121  122  123     57
   123    2.59000    0.00000    0.09867    0.09867   90.00000 -90.00000   0.00350   122  123  124     57
   124    2.59000    0.00000    0.19733    0.09867   90.00000 -90.00000   0.00350   123  124  125     57
   125    2.59000    0.00000    0.29600    0.09867   90.00000 -90.00000   0.00350   124  125  126     57
   126    2.59000    0.00000    0.39467    0.09867   90.00000 -90.00000   0.00350   125  126    0     57






   LD 1 2 5 5 1E8 1E8 7E-12
   LD 0 5 5 5 0 0 1.86E-12
 ***** DATA CARD NO.   1 EX     0     2     5     0  1.00000E+00  0.00000E+00  0.00000E+00  0.00000E+00  0.00000E+00  0.00000E+00
 ***** DATA CARD NO.   2 EX     0    52     5     0  1.00000E+00  0.00000E+00  0.00000E+00  0.00000E+00  0.00000E+00  0.00000E+00
  TL 2 5 52 5 50.00 1.09     ! RG-58A POLYETHYLENE
 ***** DATA CARD NO.   3 FR     0     6     0     0  1.44000E+02  5.00000E-01  0.00000E+00  0.00000E+00  0.00000E+00  0.00000E+00
 ***** DATA CARD NO.   4 RP     0     1   181  1500  9.00000E+01  0.00000E+00  1.00000E+00  1.00000E+00  0.00000E+00  0.00000E+00




                                 - - - - - - FREQUENCY - - - - - -

                                    FREQUENCY= 1.4400E+02 MHZ
                                    WAVELENGTH= 2.0819E+00 METERS




                    APPROXIMATE INTEGRATION EMPLOYED FOR SEGMENTS MORE THAN   1.000 WAVELENGTHS APART



                               - - - STRUCTURE IMPEDANCE LOADING - - -

                                   THIS STRUCTURE IS NOT LOADED



                                  - - - ANTENNA ENVIRONMENT - - -

                                            FREE SPACE



                                - - - MATRIX TIMING - - -

                        FILL=    0.120 SEC.,  FACTOR=    0.020 SEC.



                                          - - - ANTENNA INPUT PARAMETERS - - -

   TAG   SEG.    VOLTAGE (VOLTS)         CURRENT (AMPS)         IMPEDANCE (OHMS)        ADMITTANCE (MHOS)      POWER
   NO.   NO.    REAL        IMAG.       REAL        IMAG.       REAL        IMAG.       REAL        IMAG.     (WATTS)
     2    14 1.00000E+00 0.00000E+00 2.77493E-02 4.33029E-03 3.51802E+01-5.48988E+00 2.77493E-02 4.33029E-03 1.38747E-02
    52    77 1.00000E+00 0.00000E+00 2.77493E-02 4.33029E-03 3.51802E+01-5.48988E+00 2.77493E-02 4.33029E-03 1.38747E-02



                             - - - CURRENTS AND LOCATION - - -

                                 DISTANCES IN WAVELENGTHS


  SEG.  TAG    COORD. OF SEG. CENTER     SEG.            - - - CURRENT (AMPS) - - -
  NO.   NO.     X        Y        Z      LENGTH     REAL        IMAG.       MAG.        PHASE
     1    1  -0.1993  -0.2171   0.0000  0.05428  -2.0232E-03  1.4179E-03  2.4706E-03  144.977
     2    1  -0.1993  -0.1628   0.0000  0.05428  -5.1385E-03  3.5445E-03  6.2424E-03  145.402
     3    1  -0.1993  -0.1086   0.0000  0.05428  -7.5308E-03  5.1307E-03  9.1125E-03  145.733
     4    1  -0.1993  -0.0543   0.0000  0.05428  -9.0772E-03  6.1368E-03  1.0957E-02  145.939
     5    1  -0.1993   0.0000   0.0000  0.05428  -9.6128E-03  6.4820E-03  1.1594E-02  146.008
     6    1  -0.1993   0.0543   0.0000  0.05428  -9.0772E-03  6.1368E-03  1.0957E-02  145.939
     7    1  -0.1993   0.1086   0.0000  0.05428  -7.5308E-03  5.1307E-03  9.1125E-03  145.733
     8    1  -0.1993   0.1628   0.0000  0.05428  -5.1385E-03  3.5445E-03  6.2424E-03  145.402
